  vcan0  000401BF   [8]  00 00 00 00 00 00 00 00
  vcan0  000401BF   [8]  00 00 00 00 00 00 00 00
  vcan0  02040081   [8]  00 00 00 00 00 0F 00 00
  vcan0  02040082   [8]  00 00 00 00 00 0F 00 00
  vcan0  000401BF   [8]  00 00 00 00 00 00 00 00
  vcan0  02040081   [8]  00 00 00 00 00 0F 00 00
  vcan0  02040082   [8]  00 00 00 00 00 0F 00 00
  vcan0  000401BF   [8]  00 00 00 00 00 00 00 00
  vcan0  02040081   [8]  00 00 00 00 00 0F 00 00
  vcan0  02040082   [8]  00 00 00 00 00 0F 00 00
  vcan0  02041881   [8]  12 D0 00 00 00 00 00 00
  vcan0  02041881   [8]  12 E0 00 00 00 00 00 00
  vcan0  02041881   [8]  13 10 00 00 03 FF 00 00
  vcan0  02041881   [8]  13 30 FF FF FC 01 00 00
  vcan0  02041881   [8]  13 20 00 00 00 00 00 00
  vcan0  02041881   [8]  13 40 00 00 00 00 00 00
  vcan0  02041881   [8]  12 F0 00 00 00 28 00 00
  vcan0  02041881   [8]  15 E0 00 00 0C 80 00 00
  vcan0  02041881   [8]  15 F0 00 00 00 20 00 00
  vcan0  02041881   [8]  14 50 00 00 00 64 00 00
  vcan0  02041881   [8]  14 60 00 00 00 40 00 00
  vcan0  02041881   [8]  1A 50 00 00 00 00 00 00
  vcan0  02041881   [8]  1A 60 00 00 00 02 00 00
  vcan0  02041881   [8]  1A 80 00 00 00 00 00 00
  vcan0  02041881   [8]  1A 51 00 00 00 00 00 00
  vcan0  02041881   [8]  1A 61 00 00 00 02 00 00
  vcan0  02041881   [8]  1A 81 00 00 00 00 00 00
  vcan0  02041881   [8]  15 40 00 00 00 00 00 00
  vcan0  02041881   [8]  15 60 00 00 00 00 00 00
  vcan0  02041881   [8]  15 50 00 00 00 00 00 00
  vcan0  02041881   [8]  15 70 00 00 00 00 00 00
  vcan0  02041881   [8]  16 A0 00 00 00 01 00 00
  vcan0  02041881   [8]  16 90 00 00 00 0A 00 00
  vcan0  02041881   [8]  16 80 00 00 00 01 00 00
  vcan0  02041882   [8]  12 D0 00 00 00 00 00 00
  vcan0  02041882   [8]  12 E0 00 00 00 00 00 00
  vcan0  02041882   [8]  13 10 00 00 03 FF 00 00
  vcan0  02041882   [8]  13 30 FF FF FC 01 00 00
  vcan0  02041882   [8]  13 20 00 00 00 00 00 00
  vcan0  02041882   [8]  13 40 00 00 00 00 00 00
  vcan0  02041882   [8]  12 F0 00 00 00 28 00 00
  vcan0  02041882   [8]  15 E0 00 00 0C 80 00 00
  vcan0  02041882   [8]  15 F0 00 00 00 20 00 00
  vcan0  02041882   [8]  14 50 00 00 00 64 00 00
  vcan0  02041882   [8]  14 60 00 00 00 40 00 00
  vcan0  02041882   [8]  1A 50 00 00 00 00 00 00
  vcan0  02041882   [8]  1A 60 00 00 00 02 00 00
  vcan0  02041882   [8]  1A 80 00 00 00 00 00 00
  vcan0  02041882   [8]  1A 51 00 00 00 00 00 00
  vcan0  02041882   [8]  1A 61 00 00 00 02 00 00
  vcan0  02041882   [8]  1A 81 00 00 00 00 00 00
  vcan0  02041882   [8]  15 40 00 00 00 00 00 00
  vcan0  02041882   [8]  15 60 00 00 00 00 00 00
  vcan0  02041882   [8]  15 50 00 00 00 00 00 00
  vcan0  02041882   [8]  15 70 00 00 00 00 00 00
  vcan0  02041882   [8]  16 A0 00 00 00 01 00 00
  vcan0  02041882   [8]  16 90 00 00 00 0A 00 00
  vcan0  02041882   [8]  16 80 00 00 00 01 00 00
  vcan0  000401BF   [8]  00 00 00 00 00 00 00 00
  vcan0  02040081   [8]  00 00 00 00 00 1F 00 00
  vcan0  02040082   [8]  00 00 00 00 00 1F 00 00
  vcan0  000401BF   [8]  00 00 00 00 00 00 00 00
  vcan0  02040081   [8]  00 00 00 00 00 1F 00 00
  vcan0  02040082   [8]  00 00 00 00 00 1F 00 00
  vcan0  000401BF   [8]  00 00 00 00 00 00 00 00
  vcan0  02040081   [8]  00 00 00 00 00 1F 00 00
  vcan0  02040082   [8]  00 00 00 00 00 1F 00 00
  vcan0  000401BF   [8]  00 00 00 00 00 00 00 00
  vcan0  02040081   [8]  00 00 00 00 00 1F 00 00
  vcan0  02040082   [8]  00 00 00 00 00 1F 00 00
  vcan0  000401BF   [8]  00 00 00 00 00 00 00 00
  vcan0  02040081   [8]  00 00 00 00 00 1F 00 00
  vcan0  02040082   [8]  00 00 00 00 00 1F 00 00
  vcan0  000401BF   [8]  00 00 00 00 00 00 00 00
  vcan0  02040081   [8]  00 00 00 00 00 1F 00 00
  vcan0  02040082   [8]  00 00 00 00 00 1F 00 00
  vcan0  000401BF   [8]  00 00 00 00 00 00 00 00
  vcan0  02040081   [8]  00 00 00 00 00 1F 00 00
  vcan0  02040082   [8]  00 00 00 00 00 1F 00 00
  vcan0  000401BF   [8]  00 00 00 00 00 00 00 00
  vcan0  02040081   [8]  00 00 00 00 00 1F 00 00
  vcan0  02040082   [8]  00 00 00 00 00 1F 00 00
  vcan0  000401BF   [8]  00 00 00 00 00 00 00 00
  vcan0  02040081   [8]  00 00 00 00 00 1F 00 00
  vcan0  02040082   [8]  00 00 00 00 00 1F 00 00
  vcan0  000401BF   [8]  00 00 00 00 00 00 00 00
  vcan0  02040081   [8]  00 00 00 00 00 1F 00 00
  vcan0  02040082   [8]  00 00 00 00 00 1F 00 00
  vcan0  000401BF   [8]  00 00 00 00 00 00 00 00
  vcan0  02040081   [8]  00 00 00 00 00 1F 00 00
  vcan0  02040082   [8]  00 00 00 00 00 1F 00 00
  vcan0  000401BF   [8]  00 00 00 00 00 00 00 00
  vcan0  02040081   [8]  00 00 00 00 00 1F 00 00
  vcan0  02040082   [8]  00 00 00 00 00 1F 00 00
  vcan0  000401BF   [8]  00 00 00 00 00 00 00 00
  vcan0  02040081   [8]  00 00 00 00 00 1F 00 00
  vcan0  02040082   [8]  00 00 00 00 00 1F 00 00
  vcan0  000401BF   [8]  00 00 00 00 00 00 00 00
  vcan0  000401BF   [8]  00 00 00 00 00 00 00 00
  vcan0  02040081   [8]  00 00 00 00 00 1F 00 00
  vcan0  02040082   [8]  00 00 00 00 00 1F 00 00
  vcan0  000401BF   [8]  00 00 00 00 00 00 00 00
  vcan0  02040081   [8]  00 00 00 00 00 1F 00 00
  vcan0  02040082   [8]  00 00 00 00 00 1F 00 00
  vcan0  000401BF   [8]  00 00 00 00 00 00 00 00
  vcan0  02040081   [8]  00 00 00 00 00 1F 00 00
  vcan0  02040082   [8]  00 00 00 00 00 1F 00 00
  vcan0  000401BF   [8]  00 00 00 00 00 00 00 00
  vcan0  02040081   [8]  00 00 00 00 00 1F 00 00
  vcan0  02040082   [8]  00 00 00 00 00 1F 00 00
  vcan0  000401BF   [8]  00 00 00 00 00 00 00 00
  vcan0  02040081   [8]  00 00 00 00 00 1F 00 00
  vcan0  02040082   [8]  00 00 00 00 00 1F 00 00
  vcan0  000401BF   [8]  00 00 00 00 00 00 00 00
  vcan0  02040081   [8]  00 00 00 00 00 1F 00 00
  vcan0  02040082   [8]  00 00 00 00 00 1F 00 00
  vcan0  000401BF   [8]  00 00 00 00 00 00 00 00
  vcan0  02040081   [8]  00 00 00 00 00 1F 00 00
  vcan0  02040082   [8]  00 00 00 00 00 1F 00 00
  vcan0  000401BF   [8]  00 00 00 00 00 00 00 00
  vcan0  02040081   [8]  00 00 00 00 00 1F 00 00
  vcan0  02040082   [8]  00 00 00 00 00 1F 00 00
  vcan0  000401BF   [8]  00 00 00 00 00 00 00 00
  vcan0  02040081   [8]  00 00 00 00 00 1F 00 00
  vcan0  02040082   [8]  00 00 00 00 00 1F 00 00
  vcan0  000401BF   [8]  00 00 00 00 00 00 00 00
  vcan0  02040081   [8]  00 00 00 00 00 1F 00 00
  vcan0  02040082   [8]  00 00 00 00 00 1F 00 00
  vcan0  000401BF   [8]  00 00 00 00 00 00 00 00
  vcan0  02040081   [8]  00 00 00 00 00 1F 00 00
  vcan0  02040082   [8]  00 00 00 00 00 1F 00 00
  vcan0  000401BF   [8]  00 00 00 00 00 00 00 00
  vcan0  02040081   [8]  00 00 00 00 00 1F 00 00
  vcan0  02040082   [8]  00 00 00 00 00 1F 00 00
  vcan0  000401BF   [8]  00 00 00 00 00 00 00 00
  vcan0  02040081   [8]  00 00 00 00 00 1F 00 00
  vcan0  02040082   [8]  00 00 00 00 00 1F 00 00
  vcan0  000401BF   [8]  00 00 00 00 00 00 00 00
  vcan0  02040081   [8]  00 00 00 00 00 1F 00 00
  vcan0  02040082   [8]  00 00 00 00 00 1F 00 00
  vcan0  000401BF   [8]  00 00 00 00 00 00 00 00
  vcan0  02040081   [8]  00 00 00 00 00 1F 00 00
  vcan0  02040082   [8]  00 00 00 00 00 1F 00 00
  vcan0  000401BF   [8]  00 00 00 00 00 00 00 00
  vcan0  02040081   [8]  00 00 00 00 00 1F 00 00
  vcan0  02040082   [8]  00 00 00 00 00 1F 00 00
  vcan0  000401BF   [8]  00 00 00 00 00 00 00 00
  vcan0  02040081   [8]  00 00 00 00 00 1F 00 00
  vcan0  02040082   [8]  00 00 00 00 00 1F 00 00
  vcan0  000401BF   [8]  00 00 00 00 00 00 00 00
  vcan0  02040081   [8]  00 00 00 00 00 1F 00 00
  vcan0  02040082   [8]  00 00 00 00 00 1F 00 00
  vcan0  000401BF   [8]  00 00 00 00 00 00 00 00
  vcan0  02040081   [8]  00 00 00 00 00 1F 00 00
  vcan0  02040082   [8]  00 00 00 00 00 1F 00 00
  vcan0  000401BF   [8]  00 00 00 00 00 00 00 00
  vcan0  000401BF   [8]  00 00 00 00 00 00 00 00
  vcan0  02040081   [8]  00 00 00 00 00 1F 00 00
  vcan0  02040082   [8]  00 00 00 00 00 1F 00 00
  vcan0  000401BF   [8]  00 00 00 00 00 00 00 00
  vcan0  02040081   [8]  00 00 00 00 00 1F 00 00
  vcan0  02040082   [8]  00 00 00 00 00 1F 00 00
  vcan0  000401BF   [8]  00 00 00 00 00 00 00 00
  vcan0  02040081   [8]  00 00 00 00 00 1F 00 00
  vcan0  02040082   [8]  00 00 00 00 00 1F 00 00
  vcan0  000401BF   [8]  00 00 00 00 00 00 00 00
  vcan0  02040081   [8]  00 00 00 00 00 1F 00 00
  vcan0  02040082   [8]  00 00 00 00 00 1F 00 00
  vcan0  000401BF   [8]  00 00 00 00 00 00 00 00
  vcan0  02040081   [8]  00 00 00 00 00 1F 00 00
  vcan0  02040082   [8]  00 00 00 00 00 1F 00 00
  vcan0  000401BF   [8]  00 00 00 00 00 00 00 00
  vcan0  02040081   [8]  00 00 00 00 00 1F 00 00
  vcan0  02040082   [8]  00 00 00 00 00 1F 00 00
  vcan0  000401BF   [8]  00 00 00 00 00 00 00 00
  vcan0  02040081   [8]  00 00 00 00 00 1F 00 00
  vcan0  02040082   [8]  00 00 00 00 00 1F 00 00
  vcan0  000401BF   [8]  00 00 00 00 00 00 00 00
  vcan0  02040081   [8]  00 00 00 00 00 1F 00 00
  vcan0  02040082   [8]  00 00 00 00 00 1F 00 00
  vcan0  000401BF   [8]  00 00 00 00 00 00 00 00
  vcan0  02040081   [8]  00 00 00 00 00 1F 00 00
  vcan0  02040082   [8]  00 00 00 00 00 1F 00 00
  vcan0  000401BF   [8]  00 00 00 00 00 00 00 00
  vcan0  02040081   [8]  00 00 00 00 00 1F 00 00
  vcan0  02040082   [8]  00 00 00 00 00 1F 00 00
  vcan0  000401BF   [8]  00 00 00 00 00 00 00 00
  vcan0  02040081   [8]  00 00 00 00 00 1F 00 00
  vcan0  02040082   [8]  00 00 00 00 00 1F 00 00
  vcan0  000401BF   [8]  00 00 00 00 00 00 00 00
  vcan0  02040081   [8]  00 00 00 00 00 1F 00 00
  vcan0  02040082   [8]  00 00 00 00 00 1F 00 00
  vcan0  000401BF   [8]  00 00 00 00 00 00 00 00
  vcan0  02040081   [8]  00 00 00 00 00 1F 00 00
  vcan0  02040082   [8]  00 00 00 00 00 1F 00 00
  vcan0  000401BF   [8]  00 00 00 00 00 00 00 00
  vcan0  02040081   [8]  00 00 00 00 00 1F 00 00
  vcan0  02040082   [8]  00 00 00 00 00 1F 00 00
  vcan0  000401BF   [8]  00 00 00 00 00 00 00 00
  vcan0  02040081   [8]  00 00 00 00 00 1F 00 00
  vcan0  02040082   [8]  00 00 00 00 00 1F 00 00
  vcan0  000401BF   [8]  00 00 00 00 00 00 00 00
  vcan0  02040081   [8]  00 00 00 00 00 1F 00 00
  vcan0  02040082   [8]  00 00 00 00 00 1F 00 00
  vcan0  000401BF   [8]  00 00 00 00 00 00 00 00
  vcan0  02040081   [8]  00 00 00 00 00 1F 00 00
  vcan0  02040082   [8]  00 00 00 00 00 1F 00 00
  vcan0  000401BF   [8]  00 00 00 00 00 00 00 00
  vcan0  02040081   [8]  00 00 00 00 00 1F 00 00
  vcan0  02040082   [8]  00 00 00 00 00 1F 00 00
  vcan0  000401BF   [8]  00 00 00 00 00 00 00 00
  vcan0  02040081   [8]  00 00 00 00 00 1F 00 00
  vcan0  02040082   [8]  00 00 00 00 00 1F 00 00
  vcan0  000401BF   [8]  00 00 00 00 00 00 00 00
  vcan0  02040081   [8]  00 00 00 00 00 1F 00 00
  vcan0  02040082   [8]  00 00 00 00 00 1F 00 00
  vcan0  000401BF   [8]  00 00 00 00 00 00 00 00
  vcan0  02040081   [8]  00 00 00 00 00 1F 00 00
  vcan0  02040082   [8]  00 00 00 00 00 1F 00 00
  vcan0  000401BF   [8]  00 00 00 00 00 00 00 00
  vcan0  02040081   [8]  00 00 00 00 00 1F 00 00
  vcan0  02040082   [8]  00 00 00 00 00 1F 00 00
  vcan0  000401BF   [8]  00 00 00 00 00 00 00 00
  vcan0  02040081   [8]  00 00 00 00 00 1F 00 00
  vcan0  02040082   [8]  00 00 00 00 00 1F 00 00
  vcan0  000401BF   [8]  00 00 00 00 00 00 00 00
  vcan0  02040081   [8]  00 00 00 00 00 1F 00 00
  vcan0  02040082   [8]  00 00 00 00 00 1F 00 00
  vcan0  000401BF   [8]  00 00 00 00 00 00 00 00
  vcan0  02040081   [8]  00 00 00 00 00 1F 00 00
  vcan0  02040082   [8]  00 00 00 00 00 1F 00 00
  vcan0  000401BF   [8]  00 00 00 00 00 00 00 00
  vcan0  02040081   [8]  00 00 00 00 00 1F 00 00
  vcan0  02040082   [8]  00 00 00 00 00 1F 00 00
  vcan0  000401BF   [8]  00 00 00 00 00 00 00 00
  vcan0  02040081   [8]  00 00 00 00 00 1F 00 00
  vcan0  02040082   [8]  00 00 00 00 00 1F 00 00
  vcan0  000401BF   [8]  00 00 00 00 00 00 00 00
  vcan0  02040081   [8]  00 00 00 00 00 1F 00 00
  vcan0  02040082   [8]  00 00 00 00 00 1F 00 00
  vcan0  000401BF   [8]  00 00 00 00 00 00 00 00
  vcan0  02040081   [8]  00 00 00 00 00 1F 00 00
  vcan0  02040082   [8]  00 00 00 00 00 1F 00 00
  vcan0  000401BF   [8]  00 00 00 00 00 00 00 00
  vcan0  02040081   [8]  00 00 00 00 00 1F 00 00
  vcan0  02040082   [8]  00 00 00 00 00 1F 00 00
  vcan0  000401BF   [8]  00 00 00 00 00 00 00 00
  vcan0  02040081   [8]  00 00 00 00 00 1F 00 00
  vcan0  02040082   [8]  00 00 00 00 00 1F 00 00
  vcan0  000401BF   [8]  00 00 00 00 00 00 00 00
  vcan0  02040081   [8]  00 00 00 00 00 1F 00 00
  vcan0  02040082   [8]  00 00 00 00 00 1F 00 00
  vcan0  000401BF   [8]  00 00 00 00 00 00 00 00
  vcan0  02040081   [8]  00 00 00 00 00 1F 00 00
  vcan0  02040082   [8]  00 00 00 00 00 1F 00 00
  vcan0  000401BF   [8]  00 00 00 00 00 00 00 00
  vcan0  02040081   [8]  00 00 00 00 00 1F 00 00
  vcan0  02040082   [8]  00 00 00 00 00 1F 00 00
  vcan0  000401BF   [8]  00 00 00 00 00 00 00 00
  vcan0  02040081   [8]  00 00 00 00 00 1F 00 00
  vcan0  02040082   [8]  00 00 00 00 00 1F 00 00
  vcan0  000401BF   [8]  00 00 00 00 00 00 00 00
  vcan0  02040081   [8]  00 00 00 00 00 1F 00 00
  vcan0  02040082   [8]  00 00 00 00 00 1F 00 00
  vcan0  000401BF   [8]  00 00 00 00 00 00 00 00
  vcan0  02040081   [8]  00 00 00 00 00 1F 00 00
  vcan0  02040082   [8]  00 00 00 00 00 1F 00 00
  vcan0  000401BF   [8]  00 00 00 00 00 00 00 00
  vcan0  02040081   [8]  00 00 00 00 00 1F 00 00
  vcan0  02040082   [8]  00 00 00 00 00 1F 00 00
  vcan0  000401BF   [8]  00 00 00 00 00 00 00 00
  vcan0  02040081   [8]  00 00 00 00 00 1F 00 00
  vcan0  02040082   [8]  00 00 00 00 00 1F 00 00
  vcan0  000401BF   [8]  00 00 00 00 00 00 00 00
  vcan0  02040081   [8]  00 00 00 00 00 1F 00 00
  vcan0  02040082   [8]  00 00 00 00 00 1F 00 00
  vcan0  000401BF   [8]  00 00 00 00 00 00 00 00
  vcan0  000401BF   [8]  00 00 00 00 00 00 00 00
  vcan0  02040081   [8]  00 00 00 00 00 1F 00 00
  vcan0  02040082   [8]  00 00 00 00 00 1F 00 00
  vcan0  000401BF   [8]  00 00 00 00 00 00 00 00
  vcan0  02040081   [8]  00 00 00 00 00 1F 00 00
  vcan0  02040082   [8]  00 00 00 00 00 1F 00 00
  vcan0  000401BF   [8]  00 00 00 00 00 00 00 00
  vcan0  02040081   [8]  00 00 00 00 00 1F 00 00
  vcan0  02040082   [8]  00 00 00 00 00 1F 00 00
  vcan0  000401BF   [8]  00 00 00 00 00 00 00 00
  vcan0  02040081   [8]  00 00 00 00 00 1F 00 00
  vcan0  02040082   [8]  00 00 00 00 00 1F 00 00
  vcan0  000401BF   [8]  00 00 00 00 00 00 00 00
  vcan0  02040081   [8]  00 00 00 00 00 1F 00 00
  vcan0  02040082   [8]  00 00 00 00 00 1F 00 00
  vcan0  000401BF   [8]  00 00 00 00 00 00 00 00
  vcan0  02040081   [8]  00 00 00 00 00 1F 00 00
  vcan0  02040082   [8]  00 00 00 00 00 1F 00 00
  vcan0  000401BF   [8]  00 00 00 00 00 00 00 00
  vcan0  02040081   [8]  00 00 00 00 00 1F 00 00
  vcan0  02040082   [8]  00 00 00 00 00 1F 00 00
  vcan0  000401BF   [8]  00 00 00 00 00 00 00 00
  vcan0  02040081   [8]  00 00 00 00 00 1F 00 00
  vcan0  02040082   [8]  00 00 00 00 00 1F 00 00
  vcan0  000401BF   [8]  00 00 00 00 00 00 00 00
  vcan0  02040081   [8]  00 00 00 00 00 1F 00 00
  vcan0  02040082   [8]  00 00 00 00 00 1F 00 00
  vcan0  000401BF   [8]  00 00 00 00 00 00 00 00
  vcan0  02040081   [8]  00 00 00 00 00 1F 00 00
  vcan0  02040082   [8]  00 00 00 00 00 1F 00 00
  vcan0  000401BF   [8]  00 00 00 00 00 00 00 00
  vcan0  02040081   [8]  00 00 00 00 00 1F 00 00
  vcan0  02040082   [8]  00 00 00 00 00 1F 00 00
  vcan0  000401BF   [8]  00 00 00 00 00 00 00 00
  vcan0  02040081   [8]  00 00 00 00 00 1F 00 00
  vcan0  02040082   [8]  00 00 00 00 00 1F 00 00
  vcan0  000401BF   [8]  00 00 00 00 00 00 00 00
  vcan0  02040081   [8]  00 00 00 00 00 1F 00 00
  vcan0  02040082   [8]  00 00 00 00 00 1F 00 00
  vcan0  000401BF   [8]  00 00 00 00 00 00 00 00
  vcan0  02040081   [8]  00 00 00 00 00 1F 00 00
  vcan0  02040082   [8]  00 00 00 00 00 1F 00 00
  vcan0  000401BF   [8]  00 00 00 00 00 00 00 00
  vcan0  02040081   [8]  00 00 00 00 00 1F 00 00
  vcan0  02040082   [8]  00 00 00 00 00 1F 00 00
  vcan0  000401BF   [8]  00 00 00 00 00 00 00 00
  vcan0  02040081   [8]  00 00 00 00 00 1F 00 00
  vcan0  02040082   [8]  00 00 00 00 00 1F 00 00
  vcan0  000401BF   [8]  00 00 00 00 00 00 00 00
  vcan0  02040081   [8]  00 00 00 00 00 1F 00 00
  vcan0  02040082   [8]  00 00 00 00 00 1F 00 00
  vcan0  000401BF   [8]  00 00 00 00 00 00 00 00
  vcan0  02040081   [8]  00 00 00 00 00 1F 00 00
  vcan0  02040082   [8]  00 00 00 00 00 1F 00 00
  vcan0  000401BF   [8]  00 00 00 00 00 00 00 00
  vcan0  02040081   [8]  00 00 00 00 00 1F 00 00
  vcan0  02040082   [8]  00 00 00 00 00 1F 00 00
  vcan0  000401BF   [8]  00 00 00 00 00 00 00 00
  vcan0  02040081   [8]  00 00 00 00 00 1F 00 00
  vcan0  02040082   [8]  00 00 00 00 00 1F 00 00
  vcan0  000401BF   [8]  00 00 00 00 00 00 00 00
  vcan0  02040081   [8]  00 00 00 00 00 1F 00 00
  vcan0  02040082   [8]  00 00 00 00 00 1F 00 00
  vcan0  000401BF   [8]  00 00 00 00 00 00 00 00
  vcan0  02040081   [8]  00 00 00 00 00 1F 00 00
  vcan0  02040082   [8]  00 00 00 00 00 1F 00 00
  vcan0  000401BF   [8]  00 00 00 00 00 00 00 00
  vcan0  02040081   [8]  00 00 00 00 00 1F 00 00
  vcan0  02040082   [8]  00 00 00 00 00 1F 00 00
  vcan0  000401BF   [8]  00 00 00 00 00 00 00 00
  vcan0  02040081   [8]  00 00 00 00 00 1F 00 00
  vcan0  02040082   [8]  00 00 00 00 00 1F 00 00
  vcan0  000401BF   [8]  00 00 00 00 00 00 00 00
  vcan0  02040081   [8]  00 00 00 00 00 1F 00 00
  vcan0  02040082   [8]  00 00 00 00 00 1F 00 00
  vcan0  000401BF   [8]  00 00 00 00 00 00 00 00
  vcan0  000401BF   [8]  00 00 00 00 00 00 00 00
  vcan0  02040081   [8]  00 00 00 00 00 1F 00 00
  vcan0  02040082   [8]  00 00 00 00 00 1F 00 00
  vcan0  000401BF   [8]  00 00 00 00 00 00 00 00
  vcan0  02040081   [8]  00 00 00 00 00 1F 00 00
  vcan0  02040082   [8]  00 00 00 00 00 1F 00 00
  vcan0  02040081   [8]  00 00 00 00 00 1F 00 00
  vcan0  02040082   [8]  00 00 00 00 00 1F 00 00
  vcan0  000401BF   [8]  00 00 00 00 00 00 00 00
  vcan0  02040081   [8]  00 00 00 00 00 1F 00 00
  vcan0  02040082   [8]  00 00 00 00 00 1F 00 00
  vcan0  000401BF   [8]  00 00 00 00 00 00 00 00
  vcan0  02040081   [8]  00 00 00 00 00 1F 00 00
  vcan0  02040082   [8]  00 00 00 00 00 1F 00 00
  vcan0  000401BF   [8]  00 00 00 00 00 00 00 00
  vcan0  02040081   [8]  00 00 00 00 00 1F 00 00
  vcan0  02040082   [8]  00 00 00 00 00 1F 00 00
  vcan0  000401BF   [8]  00 00 00 00 00 00 00 00
  vcan0  02040081   [8]  00 00 00 00 00 1F 00 00
  vcan0  02040082   [8]  00 00 00 00 00 1F 00 00
  vcan0  000401BF   [8]  00 00 00 00 00 00 00 00
  vcan0  02040081   [8]  00 00 00 00 00 1F 00 00
  vcan0  02040082   [8]  00 00 00 00 00 1F 00 00
  vcan0  000401BF   [8]  00 00 00 00 00 00 00 00
  vcan0  000401BF   [8]  00 00 00 00 00 00 00 00
  vcan0  02040081   [8]  00 00 00 00 00 1F 00 00
  vcan0  02040082   [8]  00 00 00 00 00 1F 00 00
  vcan0  000401BF   [8]  00 00 00 00 00 00 00 00
  vcan0  02040081   [8]  00 00 00 00 00 1F 00 00
  vcan0  02040082   [8]  00 00 00 00 00 1F 00 00
  vcan0  000401BF   [8]  00 00 00 00 00 00 00 00
  vcan0  02040081   [8]  00 00 00 00 00 1F 00 00
  vcan0  02040082   [8]  00 00 00 00 00 1F 00 00
  vcan0  000401BF   [8]  00 00 00 00 00 00 00 00
  vcan0  02040081   [8]  00 00 00 00 00 1F 00 00
  vcan0  02040082   [8]  00 00 00 00 00 1F 00 00
  vcan0  000401BF   [8]  00 00 00 00 00 00 00 00
  vcan0  02040081   [8]  00 00 00 00 00 1F 00 00
  vcan0  02040082   [8]  00 00 00 00 00 1F 00 00
  vcan0  000401BF   [8]  00 00 00 00 00 00 00 00
  vcan0  02040081   [8]  00 00 00 00 00 1F 00 00
  vcan0  02040082   [8]  00 00 00 00 00 1F 00 00
  vcan0  000401BF   [8]  00 00 00 00 00 00 00 00
  vcan0  02040081   [8]  00 00 00 00 00 1F 00 00
  vcan0  02040082   [8]  00 00 00 00 00 1F 00 00
  vcan0  000401BF   [8]  00 00 00 00 00 00 00 00
  vcan0  02040081   [8]  00 00 00 00 00 1F 00 00
  vcan0  02040082   [8]  00 00 00 00 00 1F 00 00
  vcan0  000401BF   [8]  00 00 00 00 00 00 00 00
  vcan0  02040081   [8]  00 00 00 00 00 1F 00 00
  vcan0  02040082   [8]  00 00 00 00 00 1F 00 00
  vcan0  000401BF   [8]  00 00 00 00 00 00 00 00
  vcan0  02040081   [8]  00 00 00 00 00 1F 00 00
  vcan0  02040082   [8]  00 00 00 00 00 1F 00 00
  vcan0  000401BF   [8]  00 00 00 00 00 00 00 00
  vcan0  02040081   [8]  00 00 00 00 00 1F 00 00
  vcan0  02040082   [8]  00 00 00 00 00 1F 00 00
  vcan0  000401BF   [8]  00 00 00 00 00 00 00 00
  vcan0  02040081   [8]  00 00 00 00 00 1F 00 00
  vcan0  02040082   [8]  00 00 00 00 00 1F 00 00
  vcan0  000401BF   [8]  00 00 00 00 00 00 00 00
  vcan0  02040081   [8]  00 00 00 00 00 1F 00 00
  vcan0  02040082   [8]  00 00 00 00 00 1F 00 00
  vcan0  000401BF   [8]  00 00 00 00 00 00 00 00
  vcan0  02040081   [8]  00 00 00 00 00 1F 00 00
  vcan0  02040082   [8]  00 00 00 00 00 1F 00 00
  vcan0  000401BF   [8]  00 00 00 00 00 00 00 00
  vcan0  02040081   [8]  00 00 00 00 00 1F 00 00
  vcan0  02040082   [8]  00 00 00 00 00 1F 00 00
  vcan0  000401BF   [8]  00 00 00 00 00 00 00 00
  vcan0  02040081   [8]  00 00 00 00 00 1F 00 00
  vcan0  02040082   [8]  00 00 00 00 00 1F 00 00
  vcan0  000401BF   [8]  00 00 00 00 00 00 00 00
  vcan0  02040081   [8]  00 00 00 00 00 1F 00 00
  vcan0  02040082   [8]  00 00 00 00 00 1F 00 00
  vcan0  000401BF   [8]  00 00 00 00 00 00 00 00
  vcan0  02040081   [8]  00 00 00 00 00 1F 00 00
  vcan0  02040082   [8]  00 00 00 00 00 1F 00 00
  vcan0  000401BF   [8]  00 00 00 00 00 00 00 00
  vcan0  02040081   [8]  00 00 00 00 00 1F 00 00
  vcan0  02040082   [8]  00 00 00 00 00 1F 00 00
  vcan0  000401BF   [8]  00 00 00 00 00 00 00 00
  vcan0  02040081   [8]  00 00 00 00 00 1F 00 00
  vcan0  02040082   [8]  00 00 00 00 00 1F 00 00
  vcan0  000401BF   [8]  00 00 00 00 00 00 00 00
  vcan0  02040081   [8]  00 00 00 00 00 1F 00 00
  vcan0  02040082   [8]  00 00 00 00 00 1F 00 00
  vcan0  000401BF   [8]  00 00 00 00 00 00 00 00
  vcan0  02040081   [8]  00 00 00 00 00 1F 00 00
  vcan0  02040082   [8]  00 00 00 00 00 1F 00 00
  vcan0  000401BF   [8]  00 00 00 00 00 00 00 00
  vcan0  02040081   [8]  00 00 00 00 00 1F 00 00
  vcan0  02040082   [8]  00 00 00 00 00 1F 00 00
  vcan0  000401BF   [8]  00 00 00 00 00 00 00 00
  vcan0  02040081   [8]  00 00 00 00 00 1F 00 00
  vcan0  02040082   [8]  00 00 00 00 00 1F 00 00
  vcan0  000401BF   [8]  00 00 00 00 00 00 00 00
  vcan0  02040081   [8]  00 00 00 00 00 1F 00 00
  vcan0  02040082   [8]  00 00 00 00 00 1F 00 00
  vcan0  000401BF   [8]  00 00 00 00 00 00 00 00
  vcan0  02040081   [8]  00 00 00 00 00 1F 00 00
  vcan0  02040082   [8]  00 00 00 00 00 1F 00 00
  vcan0  000401BF   [8]  00 00 00 00 00 00 00 00
  vcan0  02040081   [8]  00 00 00 00 00 1F 00 00
  vcan0  02040082   [8]  00 00 00 00 00 1F 00 00
  vcan0  000401BF   [8]  00 00 00 00 00 00 00 00
  vcan0  02040081   [8]  00 00 00 00 00 1F 00 00
  vcan0  02040082   [8]  00 00 00 00 00 1F 00 00
  vcan0  000401BF   [8]  00 00 00 00 00 00 00 00
  vcan0  02040081   [8]  00 00 00 00 00 1F 00 00
  vcan0  02040082   [8]  00 00 00 00 00 1F 00 00
  vcan0  000401BF   [8]  00 00 00 00 00 00 00 00
  vcan0  02040081   [8]  00 00 00 00 00 1F 00 00
  vcan0  02040082   [8]  00 00 00 00 00 1F 00 00
  vcan0  000401BF   [8]  00 00 00 00 00 00 00 00
  vcan0  02040081   [8]  00 00 00 00 00 1F 00 00
  vcan0  02040082   [8]  00 00 00 00 00 1F 00 00
  vcan0  000401BF   [8]  00 00 00 00 00 00 00 00
  vcan0  02040081   [8]  00 00 00 00 00 1F 00 00
  vcan0  02040082   [8]  00 00 00 00 00 1F 00 00
  vcan0  000401BF   [8]  00 00 00 00 00 00 00 00
  vcan0  02040081   [8]  00 00 00 00 00 1F 00 00
  vcan0  02040082   [8]  00 00 00 00 00 1F 00 00
  vcan0  000401BF   [8]  00 00 00 00 00 00 00 00
  vcan0  02040081   [8]  00 00 00 00 00 1F 00 00
  vcan0  02040082   [8]  00 00 00 00 00 1F 00 00
  vcan0  000401BF   [8]  00 00 00 00 00 00 00 00
  vcan0  02040081   [8]  00 00 00 00 00 1F 00 00
  vcan0  02040082   [8]  00 00 00 00 00 1F 00 00
  vcan0  000401BF   [8]  00 00 00 00 00 00 00 00
  vcan0  02040081   [8]  00 00 00 00 00 1F 00 00
  vcan0  02040082   [8]  00 00 00 00 00 1F 00 00
  vcan0  000401BF   [8]  00 00 00 00 00 00 00 00
  vcan0  02040081   [8]  00 00 00 00 00 1F 00 00
  vcan0  02040082   [8]  00 00 00 00 00 1F 00 00
  vcan0  000401BF   [8]  00 00 00 00 00 00 00 00
  vcan0  02040081   [8]  00 00 00 00 00 1F 00 00
  vcan0  02040082   [8]  00 00 00 00 00 1F 00 00
  vcan0  000401BF   [8]  00 00 00 00 00 00 00 00
  vcan0  02040081   [8]  00 00 00 00 00 1F 00 00
  vcan0  02040082   [8]  00 00 00 00 00 1F 00 00
  vcan0  000401BF   [8]  00 00 00 00 00 00 00 00
  vcan0  02040081   [8]  00 00 00 00 00 1F 00 00
  vcan0  02040082   [8]  00 00 00 00 00 1F 00 00
  vcan0  000401BF   [8]  00 00 00 00 00 00 00 00
  vcan0  000401BF   [8]  00 00 00 00 00 00 00 00
  vcan0  02040081   [8]  00 00 00 00 00 1F 00 00
  vcan0  02040082   [8]  00 00 00 00 00 1F 00 00
  vcan0  02040081   [8]  00 00 00 00 00 1F 00 00
  vcan0  000401BF   [8]  00 00 00 00 00 00 00 00
  vcan0  02040082   [8]  00 00 00 00 00 1F 00 00
  vcan0  000401BF   [8]  00 00 00 00 00 00 00 00
  vcan0  02040081   [8]  00 00 00 00 00 1F 00 00
  vcan0  02040082   [8]  00 00 00 00 00 1F 00 00
  vcan0  000401BF   [8]  00 00 00 00 00 00 00 00
  vcan0  02040081   [8]  00 00 00 00 00 1F 00 00
  vcan0  02040082   [8]  00 00 00 00 00 1F 00 00
